T3254 000:005.667   SEGGER J-Link V7.22b Log File
T3254 000:005.793   DLL Compiled: Jun 17 2021 17:22:49
T3254 000:005.800   Logging started @ 2022-12-07 06:23
T3254 000:005.806 - 5.809ms
T3254 000:005.817 JLINK_SetWarnOutHandler(...)
T3254 000:005.823 - 0.009ms
T3254 000:005.830 JLINK_OpenEx(...)
T3254 000:007.409   Firmware: J-Link OB-nRF5340-NordicSemi compiled Dec  3 2021 15:46:49
T3254 000:007.802   Firmware: J-Link OB-nRF5340-NordicSemi compiled Dec  3 2021 15:46:49
T3254 000:007.993   Decompressing FW timestamp took 146 us
T3254 000:023.643   Hardware: V1.00
T3254 000:023.669   S/N: 1050015977
T3254 000:023.683   OEM: SEGGER
T3254 000:023.691   Feature(s): None
T3254 000:025.014   TELNET listener socket opened on port 19021
T3254 000:025.382   WEBSRV Starting webserver
T3254 000:025.704   WEBSRV Webserver running on local port 19080
T3254 000:025.720 - 19.893ms returns "O.K."
T3254 000:025.754 JLINK_GetEmuCaps()
T3254 000:025.762 - 0.011ms returns 0xB8EA5A33
T3254 000:025.781 JLINK_TIF_GetAvailable(...)
T3254 000:025.986 - 0.249ms
T3254 000:026.048 JLINK_SetErrorOutHandler(...)
T3254 000:026.055 - 0.010ms
T3254 000:026.100 JLINK_ExecCommand("ProjectFile = "C:\Work\rt-thread-official-master\rt-thread\bsp\nrf5x\nrf5340\JLinkSettings.ini"", ...). 
T3254 000:034.458 - 8.369ms returns 0x00
T3254 000:037.551 JLINK_ExecCommand("Device = nRF5340_xxAA:Application", ...). 
T3254 000:042.614   Device "NRF5340_XXAA_APP" selected.
T3254 000:044.359 - 6.825ms returns 0x00
T3254 000:044.477 JLINK_GetHardwareVersion()
T3254 000:044.490 - 0.018ms returns 10000
T3254 000:044.503 JLINK_GetDLLVersion()
T3254 000:044.513 - 0.015ms returns 72202
T3254 000:044.525 JLINK_GetOEMString(...)
T3254 000:044.540 JLINK_GetFirmwareString(...)
T3254 000:044.595 - 0.061ms
T3254 000:063.006 JLINK_GetDLLVersion()
T3254 000:063.024 - 0.020ms returns 72202
T3254 000:063.030 JLINK_GetCompileDateTime()
T3254 000:063.034 - 0.006ms
T3254 000:066.518 JLINK_GetFirmwareString(...)
T3254 000:066.554 - 0.039ms
T3254 000:071.349 JLINK_GetHardwareVersion()
T3254 000:071.370 - 0.023ms returns 10000
T3254 000:075.086 JLINK_GetSN()
T3254 000:075.129 - 0.045ms returns 1050015977
T3254 000:079.810 JLINK_GetOEMString(...)
T3254 000:083.977 JLINK_TIF_Select(JLINKARM_TIF_SWD)
T3254 000:085.078 - 1.109ms returns 0x00
T3254 000:085.092 JLINK_HasError()
T3254 000:085.104 JLINK_SetSpeed(5000)
T3254 000:085.263 - 0.165ms
T3254 000:085.276 JLINK_GetId()
T3254 000:089.522   ConfigTargetSettings() start
T3254 000:089.543    J-Link Script File: Executing ConfigTargetSettings()
T3254 000:093.397   ConfigTargetSettings() end
T3254 000:097.194   InitTarget() start
T3254 000:097.218    J-Link Script File: Executing InitTarget()
T3254 000:104.097   InitTarget() end
T3254 000:107.793   Found SW-DP with ID 0x6BA02477
T3254 000:114.540   DPIDR: 0x6BA02477
T3254 000:118.097   AP map detection skipped. Manually configured AP map found.
T3254 000:122.018   AP[0]: AHB-AP (IDR: Not set)
T3254 000:125.740   AP[1]: AHB-AP (IDR: Not set)
T3254 000:129.643   AP[2]: MEM-AP (IDR: Not set)
T3254 000:134.431   AP[3]: MEM-AP (IDR: Not set)
T3254 000:138.792   AP[0]: Core found
T3254 000:144.281   AP[0]: AHB-AP ROM base: 0xE00FE000
T3254 000:150.692   CPUID register: 0x410FD214. Implementer code: 0x41 (ARM)
T3254 000:153.626   Found Cortex-M33 r0p4, Little endian.
T3254 000:255.237   -- Max. mem block: 0x0003C468
T3254 000:255.842   CPU_ReadMem(4 bytes @ 0xE000EDF0)
T3254 000:256.292   CPU_ReadMem(4 bytes @ 0xE0002000)
T3254 000:261.265   FPUnit: 8 code (BP) slots and 0 literal slots
T3254 000:261.290   CPU_ReadMem(4 bytes @ 0xE000EDFC)
T3254 000:261.661   CPU_ReadMem(4 bytes @ 0xE0001000)
T3254 000:262.166   CPU_WriteMem(4 bytes @ 0xE0001000)
T3254 000:262.675   CPU_ReadMem(4 bytes @ 0xE000ED88)
T3254 000:263.130   CPU_WriteMem(4 bytes @ 0xE000ED88)
T3254 000:263.574   CPU_ReadMem(4 bytes @ 0xE000ED88)
T3254 000:263.986   CPU_WriteMem(4 bytes @ 0xE000ED88)
T3254 000:264.406   CPU_ReadMem(4 bytes @ 0xE000EFB8)
T3254 000:267.683   Security extension: implemented
T3254 000:271.936   Secure debug: enabled
T3254 000:278.278   CoreSight components:
T3254 000:282.763   ROMTbl[0] @ E00FE000
T3254 000:282.796   CPU_ReadMem(64 bytes @ 0xE00FE000)
T3254 000:283.843   CPU_ReadMem(32 bytes @ 0xE00FFFE0)
T3254 000:288.324   ROMTbl[0][0]: E00FF000, CID: B105100D, PID: 000BB4C9 ROM Table
T3254 000:292.455   ROMTbl[1] @ E00FF000
T3254 000:292.512   CPU_ReadMem(64 bytes @ 0xE00FF000)
T3254 000:293.475   CPU_ReadMem(32 bytes @ 0xE000EFE0)
T3254 000:294.148   CPU_ReadMem(4 bytes @ 0xE000EFBC)
T3254 000:294.642   CPU_ReadMem(4 bytes @ 0xE000EFCC)
T3254 000:298.374   ROMTbl[1][0]: E000E000, CID: B105900D, PID: 000BBD21 Cortex-M33
T3254 000:298.396   CPU_ReadMem(32 bytes @ 0xE0001FE0)
T3254 000:299.100   CPU_ReadMem(4 bytes @ 0xE0001FBC)
T3254 000:299.663   CPU_ReadMem(4 bytes @ 0xE0001FCC)
T3254 000:304.000   ROMTbl[1][1]: E0001000, CID: B105900D, PID: 000BBD21 DWT
T3254 000:304.025   CPU_ReadMem(32 bytes @ 0xE0002FE0)
T3254 000:304.834   CPU_ReadMem(4 bytes @ 0xE0002FBC)
T3254 000:305.372   CPU_ReadMem(4 bytes @ 0xE0002FCC)
T3254 000:309.133   ROMTbl[1][2]: E0002000, CID: B105900D, PID: 000BBD21 FPB
T3254 000:309.181   CPU_ReadMem(32 bytes @ 0xE0000FE0)
T3254 000:310.025   CPU_ReadMem(4 bytes @ 0xE0000FBC)
T3254 000:310.699   CPU_ReadMem(4 bytes @ 0xE0000FCC)
T3254 000:314.172   ROMTbl[1][3]: E0000000, CID: B105900D, PID: 000BBD21 ITM
T3254 000:314.214   CPU_ReadMem(32 bytes @ 0xE0041FE0)
T3254 000:315.009   CPU_ReadMem(4 bytes @ 0xE0041FBC)
T3254 000:315.544   CPU_ReadMem(4 bytes @ 0xE0041FCC)
T3254 000:319.571   ROMTbl[1][5]: E0041000, CID: B105900D, PID: 002BBD21 ETM
T3254 000:319.599   CPU_ReadMem(32 bytes @ 0xE0042FE0)
T3254 000:320.398   CPU_ReadMem(4 bytes @ 0xE0042FBC)
T3254 000:320.869   CPU_ReadMem(4 bytes @ 0xE0042FCC)
T3254 000:325.238   ROMTbl[1][6]: E0042000, CID: B105900D, PID: 000BBD21 CSS600-CTI
T3254 000:325.298   CPU_ReadMem(32 bytes @ 0xE0040FE0)
T3254 000:326.078   CPU_ReadMem(4 bytes @ 0xE0040FBC)
T3254 000:326.603   CPU_ReadMem(4 bytes @ 0xE0040FCC)
T3254 000:330.143   ROMTbl[0][1]: E0040000, CID: B105900D, PID: 000BBD21 Cortex-M33
T3254 000:330.613 - 245.348ms returns 0x6BA02477
T3254 000:330.634 JLINK_GetDLLVersion()
T3254 000:330.639 - 0.006ms returns 72202
T3254 000:330.660 JLINK_CORE_GetFound()
T3254 000:330.664 - 0.006ms returns 0xE0200FF
T3254 000:330.749 JLINK_GetDebugInfo(0x100 = JLINKARM_ROM_TABLE_ADDR_INDEX)
T3254 000:330.763   Value=0xE00FE000
T3254 000:330.770 - 0.024ms returns 0
T3254 000:334.456 JLINK_GetDebugInfo(0x100 = JLINKARM_ROM_TABLE_ADDR_INDEX)
T3254 000:334.488   Value=0xE00FE000
T3254 000:334.495 - 0.040ms returns 0
T3254 000:334.500 JLINK_GetDebugInfo(0x101 = JLINKARM_DEBUG_INFO_ETM_ADDR_INDEX)
T3254 000:334.505   Value=0xE0041000
T3254 000:334.511 - 0.012ms returns 0
T3254 000:334.524 JLINK_ReadMemEx(0xE0041FD0, 0x20 Bytes, Flags = 0x02000004)
T3254 000:334.572   CPU_ReadMem(32 bytes @ 0xE0041FD0)
T3254 000:335.211   Data:  04 00 00 00 00 00 00 00 00 00 00 00 00 00 00 00 ...
T3254 000:335.220 - 0.697ms returns 32 (0x20)
T3254 000:335.226 JLINK_ReadMemU32(0xE0041FBC, 0x1 Items)
T3254 000:335.233   CPU_ReadMem(4 bytes @ 0xE0041FBC)
T3254 000:335.652   Data:  13 4A 72 47
T3254 000:335.659 - 0.434ms returns 1 (0x1)
T3254 000:335.664 JLINK_GetDebugInfo(0x102 = JLINKARM_DEBUG_INFO_MTB_ADDR_INDEX)
T3254 000:335.668   Value=0x00000000
T3254 000:335.674 - 0.012ms returns 0
T3254 000:335.679 JLINK_GetDebugInfo(0x103 = JLINKARM_DEBUG_INFO_TPIU_ADDR_INDEX)
T3254 000:335.683   Value=0x00000000
T3254 000:335.689 - 0.011ms returns 0
T3254 000:335.693 JLINK_ReadMemEx(0xE0040FF0, 0x10 Bytes, Flags = 0x02000004)
T3254 000:335.699   CPU_ReadMem(16 bytes @ 0xE0040FF0)
T3254 000:336.252   Data:  0D 00 00 00 90 00 00 00 05 00 00 00 B1 00 00 00
T3254 000:336.259 - 0.567ms returns 16 (0x10)
T3254 000:336.264 JLINK_GetDebugInfo(0x104 = JLINKARM_DEBUG_INFO_ITM_ADDR_INDEX)
T3254 000:336.269   Value=0xE0000000
T3254 000:336.275 - 0.012ms returns 0
T3254 000:336.279 JLINK_GetDebugInfo(0x105 = JLINKARM_DEBUG_INFO_DWT_ADDR_INDEX)
T3254 000:336.287   Value=0xE0001000
T3254 000:336.294 - 0.016ms returns 0
T3254 000:336.299 JLINK_GetDebugInfo(0x106 = JLINKARM_DEBUG_INFO_FPB_ADDR_INDEX)
T3254 000:336.303   Value=0xE0002000
T3254 000:336.308 - 0.011ms returns 0
T3254 000:336.313 JLINK_GetDebugInfo(0x107 = JLINKARM_DEBUG_INFO_NVIC_ADDR_INDEX)
T3254 000:336.317   Value=0xE000E000
T3254 000:336.323 - 0.011ms returns 0
T3254 000:336.328 JLINK_GetDebugInfo(0x10C = JLINKARM_DEBUG_INFO_DBG_ADDR_INDEX)
T3254 000:336.332   Value=0xE000EDF0
T3254 000:336.337 - 0.011ms returns 0
T3254 000:336.342 JLINK_GetDebugInfo(0x01 = Unknown)
T3254 000:336.347   Value=0x00000001
T3254 000:336.352 - 0.012ms returns 0
T3254 000:336.357 JLINK_ReadMemU32(0xE000ED00, 0x1 Items)
T3254 000:336.363   CPU_ReadMem(4 bytes @ 0xE000ED00)
T3254 000:336.734   Data:  14 D2 0F 41
T3254 000:336.741   Debug reg: CPUID
T3254 000:336.746 - 0.391ms returns 1 (0x1)
T3254 000:336.752 JLINK_GetDebugInfo(0x10F = JLINKARM_DEBUG_INFO_HAS_CORTEX_M_SECURITY_EXT_INDEX)
T3254 000:336.756   Value=0x00000001
T3254 000:336.762 - 0.012ms returns 0
T3254 000:336.767 JLINK_ReadMemU32(0xE000EFB8, 0x1 Items)
T3254 000:336.772   CPU_ReadMem(4 bytes @ 0xE000EFB8)
T3254 000:337.121   Data:  FF 00 00 00
T3254 000:337.128 - 0.362ms returns 1 (0x1)
T3254 000:337.133 JLINK_ReadMemU32(0xE000EDF0, 0x1 Items)
T3254 000:337.139   CPU_ReadMem(4 bytes @ 0xE000EDF0)
T3254 000:337.577   Data:  01 00 10 01
T3254 000:337.583   Debug reg: DHCSR
T3254 000:337.589 - 0.458ms returns 1 (0x1)
T3254 000:337.595 JLINK_ReadMemU32(0xE000EE08, 0x1 Items)
T3254 000:337.600   CPU_ReadMem(4 bytes @ 0xE000EE08)
T3254 000:338.009   Data:  00 00 03 00
T3254 000:338.021   Debug reg: DSCSR
T3254 000:338.027 - 0.434ms returns 1 (0x1)
T3254 000:338.034 JLINK_HasError()
T3254 000:338.040 JLINK_SetResetType(JLINKARM_CM3_RESET_TYPE_NORMAL)
T3254 000:338.044 - 0.006ms returns JLINKARM_CM3_RESET_TYPE_NORMAL
T3254 000:338.049 JLINK_Reset()
T3254 000:338.061   CPU is running
T3254 000:338.069   CPU_WriteMem(4 bytes @ 0xE000EDF0)
T3254 000:338.530   CPU_ReadMem(4 bytes @ 0xE000ED44)
T3254 000:338.945   CPU_ReadMem(4 bytes @ 0xE000EE08)
T3254 000:339.357   CPU is running
T3254 000:339.364   CPU_WriteMem(4 bytes @ 0xE000EE08)
T3254 000:344.704   Reset: ARMv8M core with Security Extension enabled detected.
T3254 000:344.753   CPU is running
T3254 000:344.768   CPU_WriteMem(4 bytes @ 0xE000EDFC)
T3254 000:352.515   Reset: Halt core after reset via DEMCR.VC_CORERESET.
T3254 000:356.048   Reset: Reset device via AIRCR.SYSRESETREQ.
T3254 000:356.073   CPU is running
T3254 000:356.086   CPU_WriteMem(4 bytes @ 0xE000ED0C)
T3254 000:409.345   CPU_ReadMem(4 bytes @ 0xE000EDF0)
T3254 000:409.787   CPU_ReadMem(4 bytes @ 0xE000EDF0)
T3254 000:410.308   CPU is running
T3254 000:410.321   CPU_WriteMem(4 bytes @ 0xE000EDF0)
T3254 000:410.885   CPU is running
T3254 000:410.900   CPU_WriteMem(4 bytes @ 0xE000EDFC)
T3254 000:417.125   CPU_ReadMem(4 bytes @ 0xE000EDF0)
T3254 000:422.225   CPU_ReadMem(4 bytes @ 0xE000EE08)
T3254 000:422.743   CPU_WriteMem(4 bytes @ 0xE0002000)
T3254 000:423.216   CPU_ReadMem(4 bytes @ 0xE000EDFC)
T3254 000:423.660   CPU_ReadMem(4 bytes @ 0xE0001000)
T3254 000:424.010   CPU_ReadMem(4 bytes @ 0xE000EE08)
T3254 000:424.468 - 86.427ms
T3254 000:424.487 JLINK_Halt()
T3254 000:424.492 - 0.007ms returns 0x00
T3254 000:424.498 JLINK_ReadMemU32(0xE000EFB8, 0x1 Items)
T3254 000:424.508   CPU_ReadMem(4 bytes @ 0xE000EFB8)
T3254 000:424.948   Data:  FF 00 00 00
T3254 000:424.964 - 0.469ms returns 1 (0x1)
T3254 000:424.975 JLINK_ReadMemU32(0xE000EDF0, 0x1 Items)
T3254 000:424.987   CPU_ReadMem(4 bytes @ 0xE000EDF0)
T3254 000:425.382   Data:  03 00 13 00
T3254 000:425.394   Debug reg: DHCSR
T3254 000:425.400 - 0.427ms returns 1 (0x1)
T3254 000:425.409 JLINK_ReadMemU32(0xE000EDF0, 0x1 Items)
T3254 000:425.418   CPU_ReadMem(4 bytes @ 0xE000EDF0)
T3254 000:425.851   Data:  03 00 13 00
T3254 000:425.865   Debug reg: DHCSR
T3254 000:425.871 - 0.467ms returns 1 (0x1)
T3254 000:425.885 JLINK_WriteU32_64(0xE000EDF0, 0xA05F0003)
T3254 000:425.893   Debug reg: DHCSR
T3254 000:426.216   CPU_WriteMem(4 bytes @ 0xE000EDF0)
T3254 000:426.650 - 0.772ms returns 0 (0x00000000)
T3254 000:426.663 JLINK_WriteU32_64(0xE000EDFC, 0x01000000)
T3254 000:426.667   Debug reg: DEMCR
T3254 000:426.679   CPU_WriteMem(4 bytes @ 0xE000EDFC)
T3254 000:427.116 - 0.462ms returns 0 (0x00000000)
T3254 000:442.144 JLINK_GetHWStatus(...)
T3254 000:442.671 - 0.548ms returns 0
T3254 000:457.321 JLINK_GetNumBPUnits(Type = 0xFFFFFF00)
T3254 000:457.357 - 0.038ms returns 0x08
T3254 000:457.364 JLINK_GetNumBPUnits(Type = 0xF0)
T3254 000:457.370 - 0.008ms returns 0x2000
T3254 000:457.376 JLINK_GetNumWPUnits()
T3254 000:457.381 - 0.007ms returns 4
T3254 000:469.659 JLINK_GetSpeed()
T3254 000:469.682 - 0.027ms returns 2000
T3254 000:478.188 JLINK_ReadMemU32(0xE000E004, 0x1 Items)
T3254 000:478.239   CPU_ReadMem(4 bytes @ 0xE000E004)
T3254 000:478.693   Data:  04 00 00 00
T3254 000:478.705 - 0.519ms returns 1 (0x1)
T3254 000:478.714 JLINK_ReadMemU32(0xE000E004, 0x1 Items)
T3254 000:478.722   CPU_ReadMem(4 bytes @ 0xE000E004)
T3254 000:479.294   Data:  04 00 00 00
T3254 000:479.310 - 0.598ms returns 1 (0x1)
T3254 000:479.319 JLINK_WriteMemEx(0xE0001000, 0x0000001C Bytes, Flags = 0x02000004)
T3254 000:479.324   Data:  01 00 00 00 00 00 00 00 00 00 00 00 00 00 00 00 ...
T3254 000:479.340   CPU_WriteMem(28 bytes @ 0xE0001000)
T3254 000:480.052 - 0.739ms returns 0x1C
T3254 000:480.069 JLINK_Halt()
T3254 000:480.073 - 0.006ms returns 0x00
T3254 000:480.079 JLINK_IsHalted()
T3254 000:480.084 - 0.007ms returns TRUE
T3254 000:481.896 JLINK_WriteMem(0x20000000, 0x548 Bytes, ...)
T3254 000:481.902   Data:  00 BE 0A E0 0D 78 2D 06 68 40 08 24 40 00 00 D3 ...
T3254 000:482.076   CPU_WriteMem(1352 bytes @ 0x20000000)
T3254 000:491.580 - 9.700ms returns 0x548
T3254 000:491.637 JLINK_HasError()
T3254 000:491.645 JLINK_WriteReg(R0, 0x00000000)
T3254 000:491.665   CPU_ReadMem(4 bytes @ 0xE000EE08)
T3254 000:492.245 - 0.608ms returns 0
T3254 000:492.260 JLINK_WriteReg(R1, 0x00B71B00)
T3254 000:492.268 - 0.011ms returns 0
T3254 000:492.274 JLINK_WriteReg(R2, 0x00000001)
T3254 000:492.279 - 0.007ms returns 0
T3254 000:492.284 JLINK_WriteReg(R3, 0x00000000)
T3254 000:492.301 - 0.019ms returns 0
T3254 000:492.306 JLINK_WriteReg(R4, 0x00000000)
T3254 000:492.311 - 0.006ms returns 0
T3254 000:492.316 JLINK_WriteReg(R5, 0x00000000)
T3254 000:492.321 - 0.006ms returns 0
T3254 000:492.325 JLINK_WriteReg(R6, 0x00000000)
T3254 000:492.330 - 0.006ms returns 0
T3254 000:492.335 JLINK_WriteReg(R7, 0x00000000)
T3254 000:492.340 - 0.007ms returns 0
T3254 000:492.346 JLINK_WriteReg(R8, 0x00000000)
T3254 000:492.357 - 0.013ms returns 0
T3254 000:492.362 JLINK_WriteReg(R9, 0x20000544)
T3254 000:492.367 - 0.006ms returns 0
T3254 000:492.372 JLINK_WriteReg(R10, 0x00000000)
T3254 000:492.376 - 0.006ms returns 0
T3254 000:492.381 JLINK_WriteReg(R11, 0x00000000)
T3254 000:492.386 - 0.006ms returns 0
T3254 000:492.391 JLINK_WriteReg(R12, 0x00000000)
T3254 000:492.395 - 0.006ms returns 0
T3254 000:492.400 JLINK_WriteReg(R13 (SP), 0x20004000)
T3254 000:492.407 - 0.008ms returns 0
T3254 000:492.412 JLINK_WriteReg(R14, 0x20000001)
T3254 000:492.419 - 0.009ms returns 0
T3254 000:492.423 JLINK_WriteReg(R15 (PC), 0x20000020)
T3254 000:492.432 - 0.010ms returns 0
T3254 000:492.437 JLINK_WriteReg(XPSR, 0x01000000)
T3254 000:492.442 - 0.006ms returns 0
T3254 000:492.447 JLINK_WriteReg(MSP, 0x20004000)
T3254 000:492.451 - 0.006ms returns 0
T3254 000:492.456 JLINK_WriteReg(PSP, 0x20004000)
T3254 000:492.461 - 0.006ms returns 0
T3254 000:492.466 JLINK_WriteReg(CFBP, 0x00000000)
T3254 000:492.470 - 0.006ms returns 0
T3254 000:492.476 JLINK_SetBPEx(Addr = 0x20000000, Type = 0xFFFFFFF2)
T3254 000:492.482 - 0.009ms returns 0x00000001
T3254 000:492.488 JLINK_Go()
T3254 000:492.495   CPU_WriteMem(4 bytes @ 0xE0002000)
T3254 000:492.994   CPU_ReadMem(4 bytes @ 0xE0001000)
T3254 000:493.592   CPU_WriteMem(4 bytes @ 0xE0002008)
T3254 000:493.610   CPU_WriteMem(4 bytes @ 0xE000200C)
T3254 000:493.621   CPU_WriteMem(4 bytes @ 0xE0002010)
T3254 000:493.632   CPU_WriteMem(4 bytes @ 0xE0002014)
T3254 000:493.642   CPU_WriteMem(4 bytes @ 0xE0002018)
T3254 000:493.651   CPU_WriteMem(4 bytes @ 0xE000201C)
T3254 000:493.658   CPU_WriteMem(4 bytes @ 0xE0002020)
T3254 000:493.664   CPU_WriteMem(4 bytes @ 0xE0002024)
T3254 000:495.588   CPU_WriteMem(4 bytes @ 0xE0001004)
T3254 000:499.558 - 7.077ms
T3254 000:499.571 JLINK_IsHalted()
T3254 000:504.325 - 4.761ms returns TRUE
T3254 000:504.337 JLINK_ReadReg(R15 (PC))
T3254 000:504.345   CPU_ReadMem(4 bytes @ 0xE000EE08)
T3254 000:504.835 - 0.505ms returns 0x20000000
T3254 000:504.854 JLINK_ClrBPEx(BPHandle = 0x00000001)
T3254 000:504.874 - 0.022ms returns 0x00
T3254 000:504.881 JLINK_ReadReg(R0)
T3254 000:504.886 - 0.007ms returns 0x00000000
T3254 000:506.752 JLINK_HasError()
T3254 000:506.769 JLINK_WriteReg(R0, 0x00000000)
T3254 000:506.780 - 0.014ms returns 0
T3254 000:506.787 JLINK_WriteReg(R1, 0x00001000)
T3254 000:506.793 - 0.009ms returns 0
T3254 000:506.799 JLINK_WriteReg(R2, 0x000000FF)
T3254 000:506.805 - 0.009ms returns 0
T3254 000:506.811 JLINK_WriteReg(R3, 0x00000000)
T3254 000:506.818 - 0.009ms returns 0
T3254 000:506.826 JLINK_WriteReg(R4, 0x00000000)
T3254 000:506.832 - 0.009ms returns 0
T3254 000:506.839 JLINK_WriteReg(R5, 0x00000000)
T3254 000:506.845 - 0.008ms returns 0
T3254 000:506.851 JLINK_WriteReg(R6, 0x00000000)
T3254 000:506.857 - 0.008ms returns 0
T3254 000:506.863 JLINK_WriteReg(R7, 0x00000000)
T3254 000:506.869 - 0.008ms returns 0
T3254 000:506.876 JLINK_WriteReg(R8, 0x00000000)
T3254 000:506.882 - 0.026ms returns 0
T3254 000:506.906 JLINK_WriteReg(R9, 0x20000544)
T3254 000:506.913 - 0.009ms returns 0
T3254 000:506.919 JLINK_WriteReg(R10, 0x00000000)
T3254 000:506.953 - 0.052ms returns 0
T3254 000:506.975 JLINK_WriteReg(R11, 0x00000000)
T3254 000:506.982 - 0.009ms returns 0
T3254 000:506.988 JLINK_WriteReg(R12, 0x00000000)
T3254 000:506.995 - 0.009ms returns 0
T3254 000:507.001 JLINK_WriteReg(R13 (SP), 0x20004000)
T3254 000:507.010 - 0.011ms returns 0
T3254 000:507.016 JLINK_WriteReg(R14, 0x20000001)
T3254 000:507.026 - 0.012ms returns 0
T3254 000:507.033 JLINK_WriteReg(R15 (PC), 0x2000028C)
T3254 000:507.055 - 0.024ms returns 0
T3254 000:507.060 JLINK_WriteReg(XPSR, 0x01000000)
T3254 000:507.065 - 0.007ms returns 0
T3254 000:507.070 JLINK_WriteReg(MSP, 0x20004000)
T3254 000:507.075 - 0.006ms returns 0
T3254 000:507.079 JLINK_WriteReg(PSP, 0x20004000)
T3254 000:507.084 - 0.006ms returns 0
T3254 000:507.089 JLINK_WriteReg(CFBP, 0x00000000)
T3254 000:507.093 - 0.006ms returns 0
T3254 000:507.098 JLINK_SetBPEx(Addr = 0x20000000, Type = 0xFFFFFFF2)
T3254 000:507.104 - 0.008ms returns 0x00000002
T3254 000:507.109 JLINK_Go()
T3254 000:507.116   CPU_WriteMem(4 bytes @ 0xE0002000)
T3254 000:507.461   CPU_ReadMem(4 bytes @ 0xE0001000)
T3254 000:511.035 - 3.937ms
T3254 000:511.054 JLINK_IsHalted()
T3254 000:515.526 - 4.479ms returns TRUE
T3254 000:515.539 JLINK_ReadReg(R15 (PC))
T3254 000:515.548   CPU_ReadMem(4 bytes @ 0xE000EE08)
T3254 000:516.009 - 0.480ms returns 0x20000000
T3254 000:516.024 JLINK_ClrBPEx(BPHandle = 0x00000002)
T3254 000:516.031 - 0.009ms returns 0x00
T3254 000:516.037 JLINK_ReadReg(R0)
T3254 000:516.042 - 0.007ms returns 0x00000001
T3254 000:516.048 JLINK_HasError()
T3254 000:516.054 JLINK_WriteReg(R0, 0x00000000)
T3254 000:516.060 - 0.007ms returns 0
T3254 000:516.065 JLINK_WriteReg(R1, 0x00001000)
T3254 000:516.069 - 0.006ms returns 0
T3254 000:516.074 JLINK_WriteReg(R2, 0x000000FF)
T3254 000:516.079 - 0.006ms returns 0
T3254 000:516.084 JLINK_WriteReg(R3, 0x00000000)
T3254 000:516.088 - 0.006ms returns 0
T3254 000:516.093 JLINK_WriteReg(R4, 0x00000000)
T3254 000:516.098 - 0.006ms returns 0
T3254 000:516.102 JLINK_WriteReg(R5, 0x00000000)
T3254 000:516.107 - 0.006ms returns 0
T3254 000:516.112 JLINK_WriteReg(R6, 0x00000000)
T3254 000:516.120 - 0.012ms returns 0
T3254 000:516.127 JLINK_WriteReg(R7, 0x00000000)
T3254 000:516.131 - 0.006ms returns 0
T3254 000:516.136 JLINK_WriteReg(R8, 0x00000000)
T3254 000:516.141 - 0.007ms returns 0
T3254 000:516.146 JLINK_WriteReg(R9, 0x20000544)
T3254 000:516.150 - 0.006ms returns 0
T3254 000:516.155 JLINK_WriteReg(R10, 0x00000000)
T3254 000:516.160 - 0.006ms returns 0
T3254 000:516.165 JLINK_WriteReg(R11, 0x00000000)
T3254 000:516.169 - 0.006ms returns 0
T3254 000:516.174 JLINK_WriteReg(R12, 0x00000000)
T3254 000:516.179 - 0.006ms returns 0
T3254 000:516.183 JLINK_WriteReg(R13 (SP), 0x20004000)
T3254 000:516.189 - 0.008ms returns 0
T3254 000:516.194 JLINK_WriteReg(R14, 0x20000001)
T3254 000:516.199 - 0.006ms returns 0
T3254 000:516.204 JLINK_WriteReg(R15 (PC), 0x200000D4)
T3254 000:516.208 - 0.006ms returns 0
T3254 000:516.213 JLINK_WriteReg(XPSR, 0x01000000)
T3254 000:516.218 - 0.006ms returns 0
T3254 000:516.223 JLINK_WriteReg(MSP, 0x20004000)
T3254 000:516.227 - 0.006ms returns 0
T3254 000:516.232 JLINK_WriteReg(PSP, 0x20004000)
T3254 000:516.237 - 0.006ms returns 0
T3254 000:516.241 JLINK_WriteReg(CFBP, 0x00000000)
T3254 000:516.246 - 0.006ms returns 0
T3254 000:516.251 JLINK_SetBPEx(Addr = 0x20000000, Type = 0xFFFFFFF2)
T3254 000:516.257 - 0.008ms returns 0x00000003
T3254 000:516.265 JLINK_Go()
T3254 000:516.273   CPU_WriteMem(4 bytes @ 0xE0002000)
T3254 000:516.701   CPU_ReadMem(4 bytes @ 0xE0001000)
T3254 000:520.462 - 4.207ms
T3254 000:520.479 JLINK_IsHalted()
T3254 000:520.900 - 0.430ms returns FALSE
T3254 000:520.919 JLINK_HasError()
T3254 000:555.013 JLINK_IsHalted()
T3254 000:555.570 - 0.565ms returns FALSE
T3254 000:555.584 JLINK_HasError()
T3254 000:556.980 JLINK_IsHalted()
T3254 000:557.340 - 0.369ms returns FALSE
T3254 000:557.356 JLINK_HasError()
T3254 000:559.023 JLINK_IsHalted()
T3254 000:559.412 - 0.397ms returns FALSE
T3254 000:559.426 JLINK_HasError()
T3254 000:563.965 JLINK_IsHalted()
T3254 000:564.516 - 0.559ms returns FALSE
T3254 000:564.528 JLINK_HasError()
T3254 000:567.115 JLINK_IsHalted()
T3254 000:567.657 - 0.548ms returns FALSE
T3254 000:567.668 JLINK_HasError()
T3254 000:569.182 JLINK_IsHalted()
T3254 000:569.649 - 0.477ms returns FALSE
T3254 000:569.667 JLINK_HasError()
T3254 000:571.099 JLINK_IsHalted()
T3254 000:571.501 - 0.405ms returns FALSE
T3254 000:571.508 JLINK_HasError()
T3254 000:573.121 JLINK_IsHalted()
T3254 000:573.461 - 0.343ms returns FALSE
T3254 000:573.468 JLINK_HasError()
T3254 000:576.134 JLINK_IsHalted()
T3254 000:576.632 - 0.506ms returns FALSE
T3254 000:576.646 JLINK_HasError()
T3254 000:578.122 JLINK_IsHalted()
T3254 000:578.607 - 0.488ms returns FALSE
T3254 000:578.614 JLINK_HasError()
T3254 000:580.093 JLINK_IsHalted()
T3254 000:580.546 - 0.461ms returns FALSE
T3254 000:580.560 JLINK_HasError()
T3254 000:584.164 JLINK_IsHalted()
T3254 000:584.690 - 0.533ms returns FALSE
T3254 000:584.702 JLINK_HasError()
T3254 000:586.167 JLINK_IsHalted()
T3254 000:586.665 - 0.504ms returns FALSE
T3254 000:586.677 JLINK_HasError()
T3254 000:588.104 JLINK_IsHalted()
T3254 000:588.679 - 0.582ms returns FALSE
T3254 000:588.692 JLINK_HasError()
T3254 000:591.080 JLINK_IsHalted()
T3254 000:591.428 - 0.372ms returns FALSE
T3254 000:591.459 JLINK_HasError()
T3254 000:593.112 JLINK_IsHalted()
T3254 000:593.573 - 0.471ms returns FALSE
T3254 000:593.589 JLINK_HasError()
T3254 000:595.154 JLINK_IsHalted()
T3254 000:595.684 - 0.537ms returns FALSE
T3254 000:595.696 JLINK_HasError()
T3254 000:597.150 JLINK_IsHalted()
T3254 000:597.708 - 0.564ms returns FALSE
T3254 000:597.719 JLINK_HasError()
T3254 000:601.184 JLINK_IsHalted()
T3254 000:601.607 - 0.426ms returns FALSE
T3254 000:601.614 JLINK_HasError()
T3254 000:603.176 JLINK_IsHalted()
T3254 000:603.592 - 0.418ms returns FALSE
T3254 000:603.598 JLINK_HasError()
T3254 000:605.207 JLINK_IsHalted()
T3254 000:605.644 - 0.440ms returns FALSE
T3254 000:605.650 JLINK_HasError()
T3254 000:608.236 JLINK_IsHalted()
T3254 000:612.882 - 4.659ms returns TRUE
T3254 000:612.902 JLINK_ReadReg(R15 (PC))
T3254 000:612.912   CPU_ReadMem(4 bytes @ 0xE000EE08)
T3254 000:613.335 - 0.442ms returns 0x20000000
T3254 000:613.351 JLINK_ClrBPEx(BPHandle = 0x00000003)
T3254 000:613.359 - 0.013ms returns 0x00
T3254 000:613.368 JLINK_ReadReg(R0)
T3254 000:613.375 - 0.009ms returns 0x00000000
T3254 000:613.925 JLINK_HasError()
T3254 000:613.936 JLINK_WriteReg(R0, 0x00001000)
T3254 000:613.945 - 0.010ms returns 0
T3254 000:613.950 JLINK_WriteReg(R1, 0x00001000)
T3254 000:613.955 - 0.007ms returns 0
T3254 000:613.960 JLINK_WriteReg(R2, 0x000000FF)
T3254 000:613.964 - 0.007ms returns 0
T3254 000:613.969 JLINK_WriteReg(R3, 0x00000000)
T3254 000:613.974 - 0.006ms returns 0
T3254 000:613.979 JLINK_WriteReg(R4, 0x00000000)
T3254 000:613.984 - 0.007ms returns 0
T3254 000:613.990 JLINK_WriteReg(R5, 0x00000000)
T3254 000:613.994 - 0.006ms returns 0
T3254 000:613.999 JLINK_WriteReg(R6, 0x00000000)
T3254 000:614.004 - 0.006ms returns 0
T3254 000:614.009 JLINK_WriteReg(R7, 0x00000000)
T3254 000:614.014 - 0.006ms returns 0
T3254 000:614.018 JLINK_WriteReg(R8, 0x00000000)
T3254 000:614.026 - 0.010ms returns 0
T3254 000:614.031 JLINK_WriteReg(R9, 0x20000544)
T3254 000:614.050 - 0.021ms returns 0
T3254 000:614.055 JLINK_WriteReg(R10, 0x00000000)
T3254 000:614.060 - 0.009ms returns 0
T3254 000:614.067 JLINK_WriteReg(R11, 0x00000000)
T3254 000:614.072 - 0.006ms returns 0
T3254 000:614.077 JLINK_WriteReg(R12, 0x00000000)
T3254 000:614.084 - 0.018ms returns 0
T3254 000:614.098 JLINK_WriteReg(R13 (SP), 0x20004000)
T3254 000:614.104 - 0.007ms returns 0
T3254 000:614.109 JLINK_WriteReg(R14, 0x20000001)
T3254 000:614.114 - 0.007ms returns 0
T3254 000:614.119 JLINK_WriteReg(R15 (PC), 0x2000028C)
T3254 000:614.124 - 0.007ms returns 0
T3254 000:614.129 JLINK_WriteReg(XPSR, 0x01000000)
T3254 000:614.145 - 0.018ms returns 0
T3254 000:614.150 JLINK_WriteReg(MSP, 0x20004000)
T3254 000:614.155 - 0.009ms returns 0
T3254 000:614.163 JLINK_WriteReg(PSP, 0x20004000)
T3254 000:614.168 - 0.006ms returns 0
T3254 000:614.172 JLINK_WriteReg(CFBP, 0x00000000)
T3254 000:614.178 - 0.007ms returns 0
T3254 000:614.189 JLINK_SetBPEx(Addr = 0x20000000, Type = 0xFFFFFFF2)
T3254 000:614.195 - 0.007ms returns 0x00000004
T3254 000:614.200 JLINK_Go()
T3254 000:614.210   CPU_WriteMem(4 bytes @ 0xE0002000)
T3254 000:614.668   CPU_ReadMem(4 bytes @ 0xE0001000)
T3254 000:618.401 - 4.208ms
T3254 000:618.412 JLINK_IsHalted()
T3254 000:622.971 - 4.565ms returns TRUE
T3254 000:622.981 JLINK_ReadReg(R15 (PC))
T3254 000:622.988   CPU_ReadMem(4 bytes @ 0xE000EE08)
T3254 000:623.428 - 0.455ms returns 0x20000000
T3254 000:623.443 JLINK_ClrBPEx(BPHandle = 0x00000004)
T3254 000:623.452 - 0.015ms returns 0x00
T3254 000:623.463 JLINK_ReadReg(R0)
T3254 000:623.471 - 0.010ms returns 0x00000001
T3254 000:623.478 JLINK_HasError()
T3254 000:623.485 JLINK_WriteReg(R0, 0x00001000)
T3254 000:623.492 - 0.010ms returns 0
T3254 000:623.499 JLINK_WriteReg(R1, 0x00001000)
T3254 000:623.506 - 0.024ms returns 0
T3254 000:623.527 JLINK_WriteReg(R2, 0x000000FF)
T3254 000:623.533 - 0.009ms returns 0
T3254 000:623.539 JLINK_WriteReg(R3, 0x00000000)
T3254 000:623.545 - 0.008ms returns 0
T3254 000:623.551 JLINK_WriteReg(R4, 0x00000000)
T3254 000:623.557 - 0.008ms returns 0
T3254 000:623.564 JLINK_WriteReg(R5, 0x00000000)
T3254 000:623.570 - 0.009ms returns 0
T3254 000:623.576 JLINK_WriteReg(R6, 0x00000000)
T3254 000:623.586 - 0.012ms returns 0
T3254 000:623.592 JLINK_WriteReg(R7, 0x00000000)
T3254 000:623.598 - 0.009ms returns 0
T3254 000:623.604 JLINK_WriteReg(R8, 0x00000000)
T3254 000:623.610 - 0.008ms returns 0
T3254 000:623.616 JLINK_WriteReg(R9, 0x20000544)
T3254 000:623.622 - 0.010ms returns 0
T3254 000:623.630 JLINK_WriteReg(R10, 0x00000000)
T3254 000:623.637 - 0.010ms returns 0
T3254 000:623.643 JLINK_WriteReg(R11, 0x00000000)
T3254 000:623.650 - 0.009ms returns 0
T3254 000:623.656 JLINK_WriteReg(R12, 0x00000000)
T3254 000:623.662 - 0.008ms returns 0
T3254 000:623.668 JLINK_WriteReg(R13 (SP), 0x20004000)
T3254 000:623.681 - 0.016ms returns 0
T3254 000:623.687 JLINK_WriteReg(R14, 0x20000001)
T3254 000:623.694 - 0.009ms returns 0
T3254 000:623.700 JLINK_WriteReg(R15 (PC), 0x200000D4)
T3254 000:623.706 - 0.008ms returns 0
T3254 000:623.713 JLINK_WriteReg(XPSR, 0x01000000)
T3254 000:623.719 - 0.009ms returns 0
T3254 000:623.726 JLINK_WriteReg(MSP, 0x20004000)
T3254 000:623.733 - 0.009ms returns 0
T3254 000:623.739 JLINK_WriteReg(PSP, 0x20004000)
T3254 000:623.761 - 0.024ms returns 0
T3254 000:623.767 JLINK_WriteReg(CFBP, 0x00000000)
T3254 000:623.773 - 0.017ms returns 0
T3254 000:623.788 JLINK_SetBPEx(Addr = 0x20000000, Type = 0xFFFFFFF2)
T3254 000:623.795 - 0.009ms returns 0x00000005
T3254 000:623.802 JLINK_Go()
T3254 000:623.810   CPU_WriteMem(4 bytes @ 0xE0002000)
T3254 000:624.229   CPU_ReadMem(4 bytes @ 0xE0001000)
T3254 000:627.897 - 4.105ms
T3254 000:627.917 JLINK_IsHalted()
T3254 000:628.350 - 0.438ms returns FALSE
T3254 000:628.359 JLINK_HasError()
T3254 000:631.524 JLINK_IsHalted()
T3254 000:631.988 - 0.474ms returns FALSE
T3254 000:632.003 JLINK_HasError()
T3254 000:633.569 JLINK_IsHalted()
T3254 000:634.025 - 0.465ms returns FALSE
T3254 000:634.039 JLINK_HasError()
T3254 000:635.543 JLINK_IsHalted()
T3254 000:635.965 - 0.429ms returns FALSE
T3254 000:635.977 JLINK_HasError()
T3254 000:638.558 JLINK_IsHalted()
T3254 000:639.022 - 0.471ms returns FALSE
T3254 000:639.035 JLINK_HasError()
T3254 000:640.384 JLINK_IsHalted()
T3254 000:640.942 - 0.565ms returns FALSE
T3254 000:640.957 JLINK_HasError()
T3254 000:642.472 JLINK_IsHalted()
T3254 000:642.939 - 0.493ms returns FALSE
T3254 000:642.970 JLINK_HasError()
T3254 000:644.436 JLINK_IsHalted()
T3254 000:644.851 - 0.424ms returns FALSE
T3254 000:644.867 JLINK_HasError()
T3254 000:650.544 JLINK_IsHalted()
T3254 000:651.085 - 0.547ms returns FALSE
T3254 000:651.097 JLINK_HasError()
T3254 000:653.548 JLINK_IsHalted()
T3254 000:654.113 - 0.572ms returns FALSE
T3254 000:654.125 JLINK_HasError()
T3254 000:655.462 JLINK_IsHalted()
T3254 000:656.051 - 0.596ms returns FALSE
T3254 000:656.064 JLINK_HasError()
T3254 000:657.462 JLINK_IsHalted()
T3254 000:657.932 - 0.478ms returns FALSE
T3254 000:657.945 JLINK_HasError()
T3254 000:663.000 JLINK_IsHalted()
T3254 000:663.398 - 0.401ms returns FALSE
T3254 000:663.405 JLINK_HasError()
T3254 000:664.984 JLINK_IsHalted()
T3254 000:665.351 - 0.369ms returns FALSE
T3254 000:665.357 JLINK_HasError()
T3254 000:666.986 JLINK_IsHalted()
T3254 000:667.428 - 0.443ms returns FALSE
T3254 000:667.433 JLINK_HasError()
T3254 000:669.995 JLINK_IsHalted()
T3254 000:670.389 - 0.399ms returns FALSE
T3254 000:670.398 JLINK_HasError()
T3254 000:671.987 JLINK_IsHalted()
T3254 000:672.498 - 0.513ms returns FALSE
T3254 000:672.504 JLINK_HasError()
T3254 000:673.979 JLINK_IsHalted()
T3254 000:674.466 - 0.498ms returns FALSE
T3254 000:674.483 JLINK_HasError()
T3254 000:678.282 JLINK_IsHalted()
T3254 000:678.683 - 0.404ms returns FALSE
T3254 000:678.691 JLINK_HasError()
T3254 000:680.286 JLINK_IsHalted()
T3254 000:680.710 - 0.431ms returns FALSE
T3254 000:680.722 JLINK_HasError()
T3254 000:682.364 JLINK_IsHalted()
T3254 000:682.809 - 0.454ms returns FALSE
T3254 000:682.826 JLINK_HasError()
T3254 000:685.346 JLINK_IsHalted()
T3254 000:685.967 - 0.627ms returns FALSE
T3254 000:685.978 JLINK_HasError()
T3254 000:687.329 JLINK_IsHalted()
T3254 000:687.924 - 0.602ms returns FALSE
T3254 000:687.936 JLINK_HasError()
T3254 000:689.350 JLINK_IsHalted()
T3254 000:689.966 - 0.624ms returns FALSE
T3254 000:689.980 JLINK_HasError()
T3254 000:693.131 JLINK_IsHalted()
T3254 000:693.573 - 0.451ms returns FALSE
T3254 000:693.589 JLINK_HasError()
T3254 000:695.097 JLINK_IsHalted()
T3254 000:695.680 - 0.591ms returns FALSE
T3254 000:695.693 JLINK_HasError()
T3254 000:697.078 JLINK_IsHalted()
T3254 000:697.542 - 0.472ms returns FALSE
T3254 000:697.556 JLINK_HasError()
T3254 000:699.166 JLINK_IsHalted()
T3254 000:699.700 - 0.541ms returns FALSE
T3254 000:699.758 JLINK_HasError()
T3254 000:702.174 JLINK_IsHalted()
T3254 000:702.744 - 0.576ms returns FALSE
T3254 000:702.755 JLINK_HasError()
T3254 000:704.159 JLINK_IsHalted()
T3254 000:704.727 - 0.576ms returns FALSE
T3254 000:704.740 JLINK_HasError()
T3254 000:706.147 JLINK_IsHalted()
T3254 000:706.586 - 0.449ms returns FALSE
T3254 000:706.603 JLINK_HasError()
T3254 000:710.437 JLINK_IsHalted()
T3254 000:710.983 - 0.554ms returns FALSE
T3254 000:710.997 JLINK_HasError()
T3254 000:712.495 JLINK_IsHalted()
T3254 000:713.064 - 0.575ms returns FALSE
T3254 000:713.075 JLINK_HasError()
T3254 000:714.481 JLINK_IsHalted()
T3254 000:719.209 - 4.739ms returns TRUE
T3254 000:719.228 JLINK_ReadReg(R15 (PC))
T3254 000:719.241   CPU_ReadMem(4 bytes @ 0xE000EE08)
T3254 000:719.835 - 0.617ms returns 0x20000000
T3254 000:719.853 JLINK_ClrBPEx(BPHandle = 0x00000005)
T3254 000:719.863 - 0.014ms returns 0x00
T3254 000:719.872 JLINK_ReadReg(R0)
T3254 000:719.881 - 0.012ms returns 0x00000000
T3254 000:720.400 JLINK_HasError()
T3254 000:720.414 JLINK_WriteReg(R0, 0x00002000)
T3254 000:720.425 - 0.014ms returns 0
T3254 000:720.433 JLINK_WriteReg(R1, 0x00001000)
T3254 000:720.441 - 0.010ms returns 0
T3254 000:720.448 JLINK_WriteReg(R2, 0x000000FF)
T3254 000:720.456 - 0.010ms returns 0
T3254 000:720.463 JLINK_WriteReg(R3, 0x00000000)
T3254 000:720.471 - 0.010ms returns 0
T3254 000:720.479 JLINK_WriteReg(R4, 0x00000000)
T3254 000:720.486 - 0.010ms returns 0
T3254 000:720.493 JLINK_WriteReg(R5, 0x00000000)
T3254 000:720.501 - 0.010ms returns 0
T3254 000:720.508 JLINK_WriteReg(R6, 0x00000000)
T3254 000:720.516 - 0.010ms returns 0
T3254 000:720.523 JLINK_WriteReg(R7, 0x00000000)
T3254 000:720.531 - 0.010ms returns 0
T3254 000:720.538 JLINK_WriteReg(R8, 0x00000000)
T3254 000:720.545 - 0.010ms returns 0
T3254 000:720.553 JLINK_WriteReg(R9, 0x20000544)
T3254 000:720.560 - 0.010ms returns 0
T3254 000:720.568 JLINK_WriteReg(R10, 0x00000000)
T3254 000:720.575 - 0.010ms returns 0
T3254 000:720.583 JLINK_WriteReg(R11, 0x00000000)
T3254 000:720.590 - 0.010ms returns 0
T3254 000:720.598 JLINK_WriteReg(R12, 0x00000000)
T3254 000:720.605 - 0.010ms returns 0
T3254 000:720.613 JLINK_WriteReg(R13 (SP), 0x20004000)
T3254 000:720.622 - 0.012ms returns 0
T3254 000:720.629 JLINK_WriteReg(R14, 0x20000001)
T3254 000:720.637 - 0.010ms returns 0
T3254 000:720.644 JLINK_WriteReg(R15 (PC), 0x2000028C)
T3254 000:720.652 - 0.010ms returns 0
T3254 000:720.660 JLINK_WriteReg(XPSR, 0x01000000)
T3254 000:720.667 - 0.011ms returns 0
T3254 000:720.675 JLINK_WriteReg(MSP, 0x20004000)
T3254 000:720.682 - 0.010ms returns 0
T3254 000:720.690 JLINK_WriteReg(PSP, 0x20004000)
T3254 000:720.697 - 0.010ms returns 0
T3254 000:720.705 JLINK_WriteReg(CFBP, 0x00000000)
T3254 000:720.712 - 0.010ms returns 0
T3254 000:720.720 JLINK_SetBPEx(Addr = 0x20000000, Type = 0xFFFFFFF2)
T3254 000:720.729 - 0.012ms returns 0x00000006
T3254 000:720.737 JLINK_Go()
T3254 000:720.749   CPU_WriteMem(4 bytes @ 0xE0002000)
T3254 000:721.308   CPU_ReadMem(4 bytes @ 0xE0001000)
T3254 000:725.093 - 4.367ms
T3254 000:725.110 JLINK_IsHalted()
T3254 000:729.510 - 4.410ms returns TRUE
T3254 000:729.526 JLINK_ReadReg(R15 (PC))
T3254 000:729.536   CPU_ReadMem(4 bytes @ 0xE000EE08)
T3254 000:729.996 - 0.472ms returns 0x20000000
T3254 000:730.003 JLINK_ClrBPEx(BPHandle = 0x00000006)
T3254 000:730.011 - 0.010ms returns 0x00
T3254 000:730.016 JLINK_ReadReg(R0)
T3254 000:730.021 - 0.007ms returns 0x00000001
T3254 000:730.028 JLINK_HasError()
T3254 000:730.033 JLINK_WriteReg(R0, 0x00002000)
T3254 000:730.038 - 0.006ms returns 0
T3254 000:730.042 JLINK_WriteReg(R1, 0x00001000)
T3254 000:730.046 - 0.005ms returns 0
T3254 000:730.050 JLINK_WriteReg(R2, 0x000000FF)
T3254 000:730.054 - 0.005ms returns 0
T3254 000:730.059 JLINK_WriteReg(R3, 0x00000000)
T3254 000:730.065 - 0.007ms returns 0
T3254 000:730.069 JLINK_WriteReg(R4, 0x00000000)
T3254 000:730.074 - 0.006ms returns 0
T3254 000:730.079 JLINK_WriteReg(R5, 0x00000000)
T3254 000:730.083 - 0.010ms returns 0
T3254 000:730.094 JLINK_WriteReg(R6, 0x00000000)
T3254 000:730.098 - 0.006ms returns 0
T3254 000:730.103 JLINK_WriteReg(R7, 0x00000000)
T3254 000:730.108 - 0.006ms returns 0
T3254 000:730.113 JLINK_WriteReg(R8, 0x00000000)
T3254 000:730.117 - 0.006ms returns 0
T3254 000:730.122 JLINK_WriteReg(R9, 0x20000544)
T3254 000:730.127 - 0.006ms returns 0
T3254 000:730.132 JLINK_WriteReg(R10, 0x00000000)
T3254 000:730.136 - 0.006ms returns 0
T3254 000:730.141 JLINK_WriteReg(R11, 0x00000000)
T3254 000:730.146 - 0.006ms returns 0
T3254 000:730.150 JLINK_WriteReg(R12, 0x00000000)
T3254 000:730.155 - 0.006ms returns 0
T3254 000:730.160 JLINK_WriteReg(R13 (SP), 0x20004000)
T3254 000:730.165 - 0.007ms returns 0
T3254 000:730.170 JLINK_WriteReg(R14, 0x20000001)
T3254 000:730.175 - 0.006ms returns 0
T3254 000:730.180 JLINK_WriteReg(R15 (PC), 0x200000D4)
T3254 000:730.184 - 0.006ms returns 0
T3254 000:730.189 JLINK_WriteReg(XPSR, 0x01000000)
T3254 000:730.194 - 0.006ms returns 0
T3254 000:730.199 JLINK_WriteReg(MSP, 0x20004000)
T3254 000:730.203 - 0.006ms returns 0
T3254 000:730.208 JLINK_WriteReg(PSP, 0x20004000)
T3254 000:730.213 - 0.006ms returns 0
T3254 000:730.218 JLINK_WriteReg(CFBP, 0x00000000)
T3254 000:730.222 - 0.006ms returns 0
T3254 000:730.227 JLINK_SetBPEx(Addr = 0x20000000, Type = 0xFFFFFFF2)
T3254 000:730.232 - 0.007ms returns 0x00000007
T3254 000:730.237 JLINK_Go()
T3254 000:730.244   CPU_WriteMem(4 bytes @ 0xE0002000)
T3254 000:730.720   CPU_ReadMem(4 bytes @ 0xE0001000)
T3254 000:734.538 - 4.307ms
T3254 000:734.551 JLINK_IsHalted()
T3254 000:735.071 - 0.526ms returns FALSE
T3254 000:735.084 JLINK_HasError()
T3254 000:738.982 JLINK_IsHalted()
T3254 000:739.401 - 0.424ms returns FALSE
T3254 000:739.410 JLINK_HasError()
T3254 000:742.026 JLINK_IsHalted()
T3254 000:742.479 - 0.462ms returns FALSE
T3254 000:742.494 JLINK_HasError()
T3254 000:744.061 JLINK_IsHalted()
T3254 000:744.489 - 0.440ms returns FALSE
T3254 000:744.509 JLINK_HasError()
T3254 000:745.954 JLINK_IsHalted()
T3254 000:746.364 - 0.418ms returns FALSE
T3254 000:746.377 JLINK_HasError()
T3254 000:749.018 JLINK_IsHalted()
T3254 000:749.505 - 0.494ms returns FALSE
T3254 000:749.516 JLINK_HasError()
T3254 000:750.942 JLINK_IsHalted()
T3254 000:751.448 - 0.512ms returns FALSE
T3254 000:751.461 JLINK_HasError()
T3254 000:753.018 JLINK_IsHalted()
T3254 000:753.458 - 0.451ms returns FALSE
T3254 000:753.475 JLINK_HasError()
T3254 000:756.515 JLINK_IsHalted()
T3254 000:756.882 - 0.373ms returns FALSE
T3254 000:756.894 JLINK_HasError()
T3254 000:758.505 JLINK_IsHalted()
T3254 000:758.885 - 0.385ms returns FALSE
T3254 000:758.894 JLINK_HasError()
T3254 000:760.588 JLINK_IsHalted()
T3254 000:760.939 - 0.354ms returns FALSE
T3254 000:760.946 JLINK_HasError()
T3254 000:763.509 JLINK_IsHalted()
T3254 000:764.003 - 0.497ms returns FALSE
T3254 000:764.009 JLINK_HasError()
T3254 000:765.505 JLINK_IsHalted()
T3254 000:765.980 - 0.477ms returns FALSE
T3254 000:765.986 JLINK_HasError()
T3254 000:767.505 JLINK_IsHalted()
T3254 000:768.091 - 0.594ms returns FALSE
T3254 000:768.104 JLINK_HasError()
T3254 000:771.322 JLINK_IsHalted()
T3254 000:771.854 - 0.535ms returns FALSE
T3254 000:771.860 JLINK_HasError()
T3254 000:773.324 JLINK_IsHalted()
T3254 000:773.682 - 0.362ms returns FALSE
T3254 000:773.690 JLINK_HasError()
T3254 000:775.218 JLINK_IsHalted()
T3254 000:775.576 - 0.363ms returns FALSE
T3254 000:775.586 JLINK_HasError()
T3254 000:777.266 JLINK_IsHalted()
T3254 000:777.757 - 0.494ms returns FALSE
T3254 000:777.764 JLINK_HasError()
T3254 000:780.405 JLINK_IsHalted()
T3254 000:780.841 - 0.443ms returns FALSE
T3254 000:780.852 JLINK_HasError()
T3254 000:782.408 JLINK_IsHalted()
T3254 000:782.904 - 0.503ms returns FALSE
T3254 000:782.915 JLINK_HasError()
T3254 000:784.429 JLINK_IsHalted()
T3254 000:784.870 - 0.449ms returns FALSE
T3254 000:784.886 JLINK_HasError()
T3254 000:789.033 JLINK_IsHalted()
T3254 000:789.470 - 0.441ms returns FALSE
T3254 000:789.477 JLINK_HasError()
T3254 000:791.063 JLINK_IsHalted()
T3254 000:791.557 - 0.503ms returns FALSE
T3254 000:791.572 JLINK_HasError()
T3254 000:793.162 JLINK_IsHalted()
T3254 000:793.694 - 0.539ms returns FALSE
T3254 000:793.707 JLINK_HasError()
T3254 000:796.179 JLINK_IsHalted()
T3254 000:796.647 - 0.475ms returns FALSE
T3254 000:796.660 JLINK_HasError()
T3254 000:798.177 JLINK_IsHalted()
T3254 000:798.664 - 0.495ms returns FALSE
T3254 000:798.677 JLINK_HasError()
T3254 000:799.985 JLINK_IsHalted()
T3254 000:800.363 - 0.397ms returns FALSE
T3254 000:800.394 JLINK_HasError()
T3254 000:804.305 JLINK_IsHalted()
T3254 000:804.827 - 0.529ms returns FALSE
T3254 000:804.839 JLINK_HasError()
T3254 000:806.339 JLINK_IsHalted()
T3254 000:806.843 - 0.511ms returns FALSE
T3254 000:806.857 JLINK_HasError()
T3254 000:808.244 JLINK_IsHalted()
T3254 000:808.619 - 0.382ms returns FALSE
T3254 000:808.630 JLINK_HasError()
T3254 000:811.336 JLINK_IsHalted()
T3254 000:811.964 - 0.635ms returns FALSE
T3254 000:811.975 JLINK_HasError()
T3254 000:813.326 JLINK_IsHalted()
T3254 000:813.980 - 0.692ms returns FALSE
T3254 000:814.023 JLINK_HasError()
T3254 000:815.316 JLINK_IsHalted()
T3254 000:815.726 - 0.421ms returns FALSE
T3254 000:815.744 JLINK_HasError()
T3254 000:817.425 JLINK_IsHalted()
T3254 000:817.888 - 0.470ms returns FALSE
T3254 000:817.901 JLINK_HasError()
T3254 000:820.358 JLINK_IsHalted()
T3254 000:825.131 - 4.786ms returns TRUE
T3254 000:825.152 JLINK_ReadReg(R15 (PC))
T3254 000:825.166   CPU_ReadMem(4 bytes @ 0xE000EE08)
T3254 000:825.652 - 0.512ms returns 0x20000000
T3254 000:825.670 JLINK_ClrBPEx(BPHandle = 0x00000007)
T3254 000:825.677 - 0.009ms returns 0x00
T3254 000:825.682 JLINK_ReadReg(R0)
T3254 000:825.688 - 0.008ms returns 0x00000000
T3254 000:826.058 JLINK_HasError()
T3254 000:826.067 JLINK_WriteReg(R0, 0x00003000)
T3254 000:826.075 - 0.009ms returns 0
T3254 000:826.080 JLINK_WriteReg(R1, 0x00001000)
T3254 000:826.085 - 0.006ms returns 0
T3254 000:826.089 JLINK_WriteReg(R2, 0x000000FF)
T3254 000:826.094 - 0.006ms returns 0
T3254 000:826.099 JLINK_WriteReg(R3, 0x00000000)
T3254 000:826.104 - 0.009ms returns 0
T3254 000:826.111 JLINK_WriteReg(R4, 0x00000000)
T3254 000:826.115 - 0.006ms returns 0
T3254 000:826.120 JLINK_WriteReg(R5, 0x00000000)
T3254 000:826.125 - 0.006ms returns 0
T3254 000:826.130 JLINK_WriteReg(R6, 0x00000000)
T3254 000:826.134 - 0.006ms returns 0
T3254 000:826.139 JLINK_WriteReg(R7, 0x00000000)
T3254 000:826.144 - 0.006ms returns 0
T3254 000:826.151 JLINK_WriteReg(R8, 0x00000000)
T3254 000:826.155 - 0.006ms returns 0
T3254 000:826.160 JLINK_WriteReg(R9, 0x20000544)
T3254 000:826.165 - 0.006ms returns 0
T3254 000:826.170 JLINK_WriteReg(R10, 0x00000000)
T3254 000:826.174 - 0.006ms returns 0
T3254 000:826.179 JLINK_WriteReg(R11, 0x00000000)
T3254 000:826.184 - 0.006ms returns 0
T3254 000:826.190 JLINK_WriteReg(R12, 0x00000000)
T3254 000:826.195 - 0.006ms returns 0
T3254 000:826.199 JLINK_WriteReg(R13 (SP), 0x20004000)
T3254 000:826.205 - 0.007ms returns 0
T3254 000:826.210 JLINK_WriteReg(R14, 0x20000001)
T3254 000:826.215 - 0.006ms returns 0
T3254 000:826.220 JLINK_WriteReg(R15 (PC), 0x2000028C)
T3254 000:826.224 - 0.006ms returns 0
T3254 000:826.229 JLINK_WriteReg(XPSR, 0x01000000)
T3254 000:826.234 - 0.006ms returns 0
T3254 000:826.239 JLINK_WriteReg(MSP, 0x20004000)
T3254 000:826.246 - 0.009ms returns 0
T3254 000:826.251 JLINK_WriteReg(PSP, 0x20004000)
T3254 000:826.255 - 0.006ms returns 0
T3254 000:826.262 JLINK_WriteReg(CFBP, 0x00000000)
T3254 000:826.266 - 0.006ms returns 0
T3254 000:826.271 JLINK_SetBPEx(Addr = 0x20000000, Type = 0xFFFFFFF2)
T3254 000:826.277 - 0.007ms returns 0x00000008
T3254 000:826.282 JLINK_Go()
T3254 000:826.290   CPU_WriteMem(4 bytes @ 0xE0002000)
T3254 000:826.696   CPU_ReadMem(4 bytes @ 0xE0001000)
T3254 000:830.640 - 4.372ms
T3254 000:830.663 JLINK_IsHalted()
T3254 000:835.158 - 4.504ms returns TRUE
T3254 000:835.171 JLINK_ReadReg(R15 (PC))
T3254 000:835.178   CPU_ReadMem(4 bytes @ 0xE000EE08)
T3254 000:835.675 - 0.507ms returns 0x20000000
T3254 000:835.682 JLINK_ClrBPEx(BPHandle = 0x00000008)
T3254 000:835.687 - 0.007ms returns 0x00
T3254 000:835.693 JLINK_ReadReg(R0)
T3254 000:835.698 - 0.006ms returns 0x00000001
T3254 000:835.703 JLINK_HasError()
T3254 000:835.707 JLINK_WriteReg(R0, 0x00003000)
T3254 000:835.712 - 0.006ms returns 0
T3254 000:835.717 JLINK_WriteReg(R1, 0x00001000)
T3254 000:835.721 - 0.006ms returns 0
T3254 000:835.725 JLINK_WriteReg(R2, 0x000000FF)
T3254 000:835.729 - 0.006ms returns 0
T3254 000:835.734 JLINK_WriteReg(R3, 0x00000000)
T3254 000:835.738 - 0.005ms returns 0
T3254 000:835.742 JLINK_WriteReg(R4, 0x00000000)
T3254 000:835.746 - 0.005ms returns 0
T3254 000:835.750 JLINK_WriteReg(R5, 0x00000000)
T3254 000:835.754 - 0.005ms returns 0
T3254 000:835.758 JLINK_WriteReg(R6, 0x00000000)
T3254 000:835.762 - 0.005ms returns 0
T3254 000:835.767 JLINK_WriteReg(R7, 0x00000000)
T3254 000:835.771 - 0.005ms returns 0
T3254 000:835.775 JLINK_WriteReg(R8, 0x00000000)
T3254 000:835.779 - 0.006ms returns 0
T3254 000:835.783 JLINK_WriteReg(R9, 0x20000544)
T3254 000:835.787 - 0.005ms returns 0
T3254 000:835.791 JLINK_WriteReg(R10, 0x00000000)
T3254 000:835.796 - 0.006ms returns 0
T3254 000:835.800 JLINK_WriteReg(R11, 0x00000000)
T3254 000:835.804 - 0.005ms returns 0
T3254 000:835.808 JLINK_WriteReg(R12, 0x00000000)
T3254 000:835.812 - 0.006ms returns 0
T3254 000:835.816 JLINK_WriteReg(R13 (SP), 0x20004000)
T3254 000:835.821 - 0.006ms returns 0
T3254 000:835.826 JLINK_WriteReg(R14, 0x20000001)
T3254 000:835.830 - 0.005ms returns 0
T3254 000:835.834 JLINK_WriteReg(R15 (PC), 0x200000D4)
T3254 000:835.838 - 0.005ms returns 0
T3254 000:835.842 JLINK_WriteReg(XPSR, 0x01000000)
T3254 000:835.846 - 0.006ms returns 0
T3254 000:835.850 JLINK_WriteReg(MSP, 0x20004000)
T3254 000:835.855 - 0.006ms returns 0
T3254 000:835.859 JLINK_WriteReg(PSP, 0x20004000)
T3254 000:835.863 - 0.005ms returns 0
T3254 000:835.867 JLINK_WriteReg(CFBP, 0x00000000)
T3254 000:835.871 - 0.005ms returns 0
T3254 000:835.875 JLINK_SetBPEx(Addr = 0x20000000, Type = 0xFFFFFFF2)
T3254 000:835.880 - 0.006ms returns 0x00000009
T3254 000:835.884 JLINK_Go()
T3254 000:835.890   CPU_WriteMem(4 bytes @ 0xE0002000)
T3254 000:836.389   CPU_ReadMem(4 bytes @ 0xE0001000)
T3254 000:840.298 - 4.423ms
T3254 000:840.319 JLINK_IsHalted()
T3254 000:840.692 - 0.382ms returns FALSE
T3254 000:840.708 JLINK_HasError()
T3254 000:846.789 JLINK_IsHalted()
T3254 000:847.249 - 0.475ms returns FALSE
T3254 000:847.273 JLINK_HasError()
T3254 000:849.191 JLINK_IsHalted()
T3254 000:849.762 - 0.577ms returns FALSE
T3254 000:849.773 JLINK_HasError()
T3254 000:851.194 JLINK_IsHalted()
T3254 000:851.731 - 0.543ms returns FALSE
T3254 000:851.742 JLINK_HasError()
T3254 000:853.177 JLINK_IsHalted()
T3254 000:853.697 - 0.526ms returns FALSE
T3254 000:853.708 JLINK_HasError()
T3254 000:855.192 JLINK_IsHalted()
T3254 000:855.773 - 0.587ms returns FALSE
T3254 000:855.784 JLINK_HasError()
T3254 000:857.131 JLINK_IsHalted()
T3254 000:857.664 - 0.541ms returns FALSE
T3254 000:857.677 JLINK_HasError()
T3254 000:859.156 JLINK_IsHalted()
T3254 000:859.696 - 0.548ms returns FALSE
T3254 000:859.708 JLINK_HasError()
T3254 000:861.182 JLINK_IsHalted()
T3254 000:861.642 - 0.468ms returns FALSE
T3254 000:861.656 JLINK_HasError()
T3254 000:863.423 JLINK_IsHalted()
T3254 000:863.832 - 0.414ms returns FALSE
T3254 000:863.841 JLINK_HasError()
T3254 000:865.511 JLINK_IsHalted()
T3254 000:865.875 - 0.366ms returns FALSE
T3254 000:865.882 JLINK_HasError()
T3254 000:867.413 JLINK_IsHalted()
T3254 000:867.944 - 0.538ms returns FALSE
T3254 000:867.956 JLINK_HasError()
T3254 000:869.492 JLINK_IsHalted()
T3254 000:870.009 - 0.523ms returns FALSE
T3254 000:870.020 JLINK_HasError()
T3254 000:871.478 JLINK_IsHalted()
T3254 000:872.019 - 0.550ms returns FALSE
T3254 000:872.036 JLINK_HasError()
T3254 000:873.484 JLINK_IsHalted()
T3254 000:874.015 - 0.540ms returns FALSE
T3254 000:874.031 JLINK_HasError()
T3254 000:875.391 JLINK_IsHalted()
T3254 000:875.859 - 0.475ms returns FALSE
T3254 000:875.872 JLINK_HasError()
T3254 000:877.500 JLINK_IsHalted()
T3254 000:877.919 - 0.428ms returns FALSE
T3254 000:877.936 JLINK_HasError()
T3254 000:880.479 JLINK_IsHalted()
T3254 000:880.850 - 0.377ms returns FALSE
T3254 000:880.862 JLINK_HasError()
T3254 000:882.505 JLINK_IsHalted()
T3254 000:882.904 - 0.401ms returns FALSE
T3254 000:882.910 JLINK_HasError()
T3254 000:884.534 JLINK_IsHalted()
T3254 000:885.028 - 0.503ms returns FALSE
T3254 000:885.041 JLINK_HasError()
T3254 000:886.561 JLINK_IsHalted()
T3254 000:887.044 - 0.491ms returns FALSE
T3254 000:887.059 JLINK_HasError()
T3254 000:888.582 JLINK_IsHalted()
T3254 000:889.064 - 0.488ms returns FALSE
T3254 000:889.075 JLINK_HasError()
T3254 000:890.429 JLINK_IsHalted()
T3254 000:890.829 - 0.410ms returns FALSE
T3254 000:890.852 JLINK_HasError()
T3254 000:892.438 JLINK_IsHalted()
T3254 000:892.895 - 0.464ms returns FALSE
T3254 000:892.908 JLINK_HasError()
T3254 000:894.081 JLINK_IsHalted()
T3254 000:894.488 - 0.410ms returns FALSE
T3254 000:894.496 JLINK_HasError()
T3254 000:896.027 JLINK_IsHalted()
T3254 000:896.440 - 0.418ms returns FALSE
T3254 000:896.448 JLINK_HasError()
T3254 000:898.029 JLINK_IsHalted()
T3254 000:898.467 - 0.445ms returns FALSE
T3254 000:898.479 JLINK_HasError()
T3254 000:900.113 JLINK_IsHalted()
T3254 000:900.529 - 0.422ms returns FALSE
T3254 000:900.541 JLINK_HasError()
T3254 000:902.098 JLINK_IsHalted()
T3254 000:902.552 - 0.462ms returns FALSE
T3254 000:902.565 JLINK_HasError()
T3254 000:904.103 JLINK_IsHalted()
T3254 000:904.649 - 0.554ms returns FALSE
T3254 000:904.662 JLINK_HasError()
T3254 000:906.088 JLINK_IsHalted()
T3254 000:906.547 - 0.467ms returns FALSE
T3254 000:906.559 JLINK_HasError()
T3254 000:908.093 JLINK_IsHalted()
T3254 000:908.701 - 0.618ms returns FALSE
T3254 000:908.719 JLINK_HasError()
